! Sonnet Data File
! From: emgraph Version : 16.56
! From Project: 190426_coupler_test
! Data is De-embedded 
! Data File Written: 05/06/2019 15:59:44
!< HDATE 04/25/2019 10:48:44
!< MDATE 04/25/2019 10:59:35
!< PARAMS
!< tandelta = 0.0
!< t_aSi = 0.25
!< W = 10.0
!< Lcoupler = 400.0
!< END PARAMS
# GHZ S MA R 50.0 !  non standard terminations in data
! TERM 50.00000 0.000000 50.00000 0.000000 63.84000 0.000000
2.00000000 0.005650 65.962 0.999976 -21.65 0.004026 64.561
           0.999976 -21.65 0.005645 70.899 0.004034 86.493
           0.004026 64.561 0.004034 86.493 0.999984 -7.605
!< P1 F=2.0 Eeff=(6.61542829 0.0) Z0=(50.9674668 0.0) R=0.0 C=0.00719637 
!< P2 F=2.0 Eeff=(6.61542829 0.0) Z0=(50.9674668 0.0) R=0.0 C=0.00719637 
!< P3 F=2.0 Eeff=(7.77190715 0.0) Z0=(63.8378767 0.0) R=0.0 C=7.3202e-4 
3.00000000 0.008195 53.895 0.999948 -32.47 0.006037 51.841
           0.999948 -32.47 0.008177 61.389 0.006061 84.691
           0.006037 51.841 0.006061 84.691 0.999963 -11.41
!< P1 F=3.0 Eeff=(6.61540693 0.0) Z0=(50.967774 0.0) R=0.0 C=0.00719639 
!< P2 F=3.0 Eeff=(6.61540693 0.0) Z0=(50.967774 0.0) R=0.0 C=0.00719639 
!< P3 F=3.0 Eeff=(7.77190239 0.0) Z0=(63.8378477 0.0) R=0.0 C=7.3202e-4 
4.00000000 0.010412 41.765 0.999913 -43.29 0.008045 39.122
           0.999913 -43.29 0.010372 51.930 0.008098 82.840
           0.008045 39.122 0.008098 82.840 0.999935 -15.21
!< P1 F=4.0 Eeff=(6.61538316 0.0) Z0=(50.9682073 0.0) R=0.0 C=0.00719633 
!< P2 F=4.0 Eeff=(6.61538316 0.0) Z0=(50.9682073 0.0) R=0.0 C=0.00719633 
!< P3 F=4.0 Eeff=(7.77189392 0.0) Z0=(63.8377997 0.0) R=0.0 C=7.3202e-4 
5.00000000 0.012214 29.545 0.999875 -54.11 0.010050 26.403
           0.999875 -54.11 0.012139 42.547 0.010141 80.935
           0.010050 26.403 0.010141 80.935 0.999898 -19.01
!< P1 F=5.0 Eeff=(6.61534443 0.0) Z0=(50.9687599 0.0) R=0.0 C=0.0071963 
!< P2 F=5.0 Eeff=(6.61534443 0.0) Z0=(50.9687599 0.0) R=0.0 C=0.0071963 
!< P3 F=5.0 Eeff=(7.77188198 0.0) Z0=(63.8377335 0.0) R=0.0 C=7.3202e-4 
6.00000000 0.013527 17.196 0.999836 -64.94 0.012050 13.685
           0.999836 -64.94 0.013403 33.271 0.012187 78.980
           0.012050 13.685 0.012187 78.980 0.999853 -22.82
!< P1 F=6.0 Eeff=(6.61529487 0.0) Z0=(50.9694247 0.0) R=0.0 C=0.00719622 
!< P2 F=6.0 Eeff=(6.61529487 0.0) Z0=(50.9694247 0.0) R=0.0 C=0.00719622 
!< P3 F=6.0 Eeff=(7.77186732 0.0) Z0=(63.8376524 0.0) R=0.0 C=7.32019e-4 
7.00000000 0.014295 4.6659 0.999799 -75.76 0.014045 0.9666
           0.999799 -75.76 0.014112 24.145 0.014229 76.983
           0.014045 0.9666 0.014229 76.983 0.999800 -26.62
!< P1 F=7.0 Eeff=(6.61523586 0.0) Z0=(50.9702519 0.0) R=0.0 C=0.00719619 
!< P2 F=7.0 Eeff=(6.61523586 0.0) Z0=(50.9702519 0.0) R=0.0 C=0.00719619 
!< P3 F=7.0 Eeff=(7.77184968 0.0) Z0=(63.8375552 0.0) R=0.0 C=7.32019e-4 
8.00000000 0.014484 -8.122 0.999767 -86.58 0.016034 -11.75
           0.999767 -86.58 0.014233 15.236 0.016258 74.961
           0.016034 -11.75 0.016258 74.961 0.999739 -30.43
!< P1 F=8.0 Eeff=(6.61516796 0.0) Z0=(50.9712323 0.0) R=0.0 C=0.00719613 
!< P2 F=8.0 Eeff=(6.61516796 0.0) Z0=(50.9712323 0.0) R=0.0 C=0.00719613 
!< P3 F=8.0 Eeff=(7.77183059 0.0) Z0=(63.8374483 0.0) R=0.0 C=7.32019e-4 
