! Sonnet Data File
! From: emgraph Version : 16.56
! From Project: 190426_coupler_test
! Data is De-embedded 
! Data File Written: 05/06/2019 15:59:44
!< HDATE 04/25/2019 10:48:44
!< MDATE 04/25/2019 10:59:35
!< PARAMS
!< tandelta = 0.0
!< t_aSi = 0.25
!< W = 10.0
!< Lcoupler = 100.0
!< END PARAMS
# GHZ S MA R 50.0 !  non standard terminations in data
! TERM 50.00000 0.000000 50.00000 0.000000 63.84000 0.000000
2.00000000 0.005334 66.764 0.999985 -21.63 0.001074 66.837
           0.999985 -21.63 0.005334 69.986 0.001076 88.177
           0.001074 66.837 0.001076 88.177 0.999999 -3.642
!< P1 F=2.0 Eeff=(6.61542829 0.0) Z0=(50.9674668 0.0) R=0.0 C=0.00719637 
!< P2 F=2.0 Eeff=(6.61542829 0.0) Z0=(50.9674668 0.0) R=0.0 C=0.00719637 
!< P3 F=2.0 Eeff=(7.77189855 0.0) Z0=(63.83757 0.0) R=0.0 C=7.31993e-4 
3.00000000 0.007735 55.129 0.999969 -32.45 0.001611 55.256
           0.999969 -32.45 0.007734 59.996 0.001617 87.220
           0.001611 55.256 0.001617 87.220 0.999997 -5.463
!< P1 F=3.0 Eeff=(6.61540693 0.0) Z0=(50.967774 0.0) R=0.0 C=0.00719639 
!< P2 F=3.0 Eeff=(6.61540693 0.0) Z0=(50.967774 0.0) R=0.0 C=0.00719639 
!< P3 F=3.0 Eeff=(7.77189379 0.0) Z0=(63.837541 0.0) R=0.0 C=7.31993e-4 
4.00000000 0.009827 43.474 0.999949 -43.26 0.002148 43.676
           0.999949 -43.26 0.009824 50.026 0.002161 86.215
           0.002148 43.676 0.002161 86.215 0.999995 -7.284
!< P1 F=4.0 Eeff=(6.61538316 0.0) Z0=(50.9682073 0.0) R=0.0 C=0.00719633 
!< P2 F=4.0 Eeff=(6.61538316 0.0) Z0=(50.9682073 0.0) R=0.0 C=0.00719633 
!< P3 F=4.0 Eeff=(7.77188533 0.0) Z0=(63.837493 0.0) R=0.0 C=7.31993e-4 
5.00000000 0.011528 31.787 0.999930 -54.07 0.002684 32.096
           0.999930 -54.07 0.011522 40.087 0.002708 85.158
           0.002684 32.096 0.002708 85.158 0.999993 -9.106
!< P1 F=5.0 Eeff=(6.61534443 0.0) Z0=(50.9687599 0.0) R=0.0 C=0.0071963 
!< P2 F=5.0 Eeff=(6.61534443 0.0) Z0=(50.9687599 0.0) R=0.0 C=0.0071963 
!< P3 F=5.0 Eeff=(7.77187338 0.0) Z0=(63.8374268 0.0) R=0.0 C=7.31993e-4 
6.00000000 0.012767 20.058 0.999913 -64.89 0.003221 20.516
           0.999913 -64.89 0.012758 30.191 0.003256 84.051
           0.003221 20.516 0.003256 84.051 0.999990 -10.93
!< P1 F=6.0 Eeff=(6.61529487 0.0) Z0=(50.9694247 0.0) R=0.0 C=0.00719622 
!< P2 F=6.0 Eeff=(6.61529487 0.0) Z0=(50.9694247 0.0) R=0.0 C=0.00719622 
!< P3 F=6.0 Eeff=(7.77185873 0.0) Z0=(63.8373458 0.0) R=0.0 C=7.31993e-4 
7.00000000 0.013495 8.2679 0.999902 -75.70 0.003757 8.9374
           0.999902 -75.70 0.013482 20.352 0.003804 82.904
           0.003757 8.9374 0.003804 82.904 0.999986 -12.75
!< P1 F=7.0 Eeff=(6.61523586 0.0) Z0=(50.9702519 0.0) R=0.0 C=0.00719619 
!< P2 F=7.0 Eeff=(6.61523586 0.0) Z0=(50.9702519 0.0) R=0.0 C=0.00719619 
!< P3 F=7.0 Eeff=(7.77184108 0.0) Z0=(63.8372486 0.0) R=0.0 C=7.31992e-4 
8.00000000 0.013681 -3.607 0.999897 -86.51 0.004293 -2.641
           0.999897 -86.51 0.013663 10.596 0.004351 81.731
           0.004293 -2.641 0.004351 81.731 0.999981 -14.57
!< P1 F=8.0 Eeff=(6.61516796 0.0) Z0=(50.9712323 0.0) R=0.0 C=0.00719613 
!< P2 F=8.0 Eeff=(6.61516796 0.0) Z0=(50.9712323 0.0) R=0.0 C=0.00719613 
!< P3 F=8.0 Eeff=(7.77182199 0.0) Z0=(63.8371417 0.0) R=0.0 C=7.31992e-4 
