! Sonnet Data File
! From: emgraph Version : 16.56
! From Project: 190426_coupler_test
! Data is De-embedded 
! Data File Written: 05/06/2019 15:59:44
!< HDATE 04/25/2019 10:48:44
!< MDATE 04/25/2019 10:59:35
!< PARAMS
!< tandelta = 0.0
!< t_aSi = 0.25
!< W = 10.0
!< Lcoupler = 200.0
!< END PARAMS
# GHZ S MA R 50.0 !  non standard terminations in data
! TERM 50.00000 0.000000 50.00000 0.000000 63.84000 0.000000
2.00000000 0.005464 66.358 0.999983 -21.64 0.002057 66.053
           0.999983 -21.64 0.005462 70.409 0.002061 87.641
           0.002057 66.053 0.002061 87.641 0.999996 -4.963
!< P1 F=2.0 Eeff=(6.61542829 0.0) Z0=(50.9674668 0.0) R=0.0 C=0.00719637 
!< P2 F=2.0 Eeff=(6.61542829 0.0) Z0=(50.9674668 0.0) R=0.0 C=0.00719637 
!< P3 F=2.0 Eeff=(7.77190561 0.0) Z0=(63.8378181 0.0) R=0.0 C=7.32012e-4 
3.00000000 0.007920 54.509 0.999964 -32.46 0.003085 54.080
           0.999964 -32.46 0.007915 60.638 0.003097 86.415
           0.003085 54.080 0.003097 86.415 0.999990 -7.444
!< P1 F=3.0 Eeff=(6.61540693 0.0) Z0=(50.967774 0.0) R=0.0 C=0.00719639 
!< P2 F=3.0 Eeff=(6.61540693 0.0) Z0=(50.967774 0.0) R=0.0 C=0.00719639 
!< P3 F=3.0 Eeff=(7.77190085 0.0) Z0=(63.8377891 0.0) R=0.0 C=7.32012e-4 
4.00000000 0.010055 42.626 0.999941 -43.27 0.004113 42.107
           0.999941 -43.27 0.010045 50.901 0.004139 85.140
           0.004113 42.107 0.004139 85.140 0.999983 -9.926
!< P1 F=4.0 Eeff=(6.61538316 0.0) Z0=(50.9682073 0.0) R=0.0 C=0.00719633 
!< P2 F=4.0 Eeff=(6.61538316 0.0) Z0=(50.9682073 0.0) R=0.0 C=0.00719633 
!< P3 F=4.0 Eeff=(7.77189239 0.0) Z0=(63.8377411 0.0) R=0.0 C=7.32012e-4 
5.00000000 0.011784 30.692 0.999917 -54.09 0.005140 30.135
           0.999917 -54.09 0.011764 41.211 0.005185 83.813
           0.005140 30.135 0.005185 83.813 0.999973 -12.41
!< P1 F=5.0 Eeff=(6.61534443 0.0) Z0=(50.9687599 0.0) R=0.0 C=0.0071963 
!< P2 F=5.0 Eeff=(6.61534443 0.0) Z0=(50.9687599 0.0) R=0.0 C=0.0071963 
!< P3 F=5.0 Eeff=(7.77188044 0.0) Z0=(63.8376749 0.0) R=0.0 C=7.32012e-4 
6.00000000 0.013035 18.685 0.999896 -64.91 0.006166 18.164
           0.999896 -64.91 0.013002 31.587 0.006234 82.436
           0.006166 18.164 0.006234 82.436 0.999962 -14.89
!< P1 F=6.0 Eeff=(6.61529487 0.0) Z0=(50.9694247 0.0) R=0.0 C=0.00719622 
!< P2 F=6.0 Eeff=(6.61529487 0.0) Z0=(50.9694247 0.0) R=0.0 C=0.00719622 
!< P3 F=6.0 Eeff=(7.77186579 0.0) Z0=(63.8375939 0.0) R=0.0 C=7.32011e-4 
7.00000000 0.013755 6.5774 0.999880 -75.73 0.007192 6.1921
           0.999880 -75.73 0.013707 22.057 0.007283 81.018
           0.007192 6.1921 0.007283 81.018 0.999948 -17.37
!< P1 F=7.0 Eeff=(6.61523586 0.0) Z0=(50.9702519 0.0) R=0.0 C=0.00719619 
!< P2 F=7.0 Eeff=(6.61523586 0.0) Z0=(50.9702519 0.0) R=0.0 C=0.00719619 
!< P3 F=7.0 Eeff=(7.77184814 0.0) Z0=(63.8374966 0.0) R=0.0 C=7.32011e-4 
8.00000000 0.013913 -5.675 0.999869 -86.54 0.008216 -5.779
           0.999869 -86.54 0.013847 12.660 0.008328 79.575
           0.008216 -5.779 0.008328 79.575 0.999932 -19.85
!< P1 F=8.0 Eeff=(6.61516796 0.0) Z0=(50.9712323 0.0) R=0.0 C=0.00719613 
!< P2 F=8.0 Eeff=(6.61516796 0.0) Z0=(50.9712323 0.0) R=0.0 C=0.00719613 
!< P3 F=8.0 Eeff=(7.77182905 0.0) Z0=(63.8373897 0.0) R=0.0 C=7.32011e-4 
