! Sonnet Data File
! From: emgraph Version : 16.56
! From Project: 190426_coupler_test
! Data is De-embedded 
! Data File Written: 05/06/2019 15:59:44
!< HDATE 04/25/2019 10:48:44
!< MDATE 04/25/2019 10:59:35
!< PARAMS
!< tandelta = 0.0
!< t_aSi = 0.25
!< W = 10.0
!< Lcoupler = 1900.0
!< END PARAMS
# GHZ S MA R 50.0 !  non standard terminations in data
! TERM 50.00000 0.000000 50.00000 0.000000 63.84000 0.000000
2.00000000 0.006945 67.964 0.999801 -21.70 0.018697 53.586
           0.999801 -21.70 0.006811 71.335 0.018746 77.647
           0.018697 53.586 0.018746 77.647 0.999649 -27.43
!< P1 F=2.0 Eeff=(6.61542829 0.0) Z0=(50.9674668 0.0) R=0.0 C=0.00719637 
!< P2 F=2.0 Eeff=(6.61542829 0.0) Z0=(50.9674668 0.0) R=0.0 C=0.00719637 
!< P3 F=2.0 Eeff=(7.77190732 0.0) Z0=(63.8378797 0.0) R=0.0 C=7.32021e-4 
3.00000000 0.010335 56.533 0.999559 -32.55 0.027832 35.370
           0.999559 -32.55 0.009908 62.059 0.027987 71.394
           0.027832 35.370 0.027987 71.394 0.999221 -41.17
!< P1 F=3.0 Eeff=(6.61540693 0.0) Z0=(50.967774 0.0) R=0.0 C=0.00719639 
!< P2 F=3.0 Eeff=(6.61540693 0.0) Z0=(50.967774 0.0) R=0.0 C=0.00719639 
!< P3 F=3.0 Eeff=(7.77190257 0.0) Z0=(63.8378507 0.0) R=0.0 C=7.3202e-4 
4.00000000 0.013589 44.649 0.999234 -43.39 0.036710 17.145
           0.999234 -43.39 0.012647 52.855 0.037045 65.061
           0.036710 17.145 0.037045 65.061 0.998639 -54.94
!< P1 F=4.0 Eeff=(6.61538316 0.0) Z0=(50.9682073 0.0) R=0.0 C=0.00719633 
!< P2 F=4.0 Eeff=(6.61538316 0.0) Z0=(50.9682073 0.0) R=0.0 C=0.00719633 
!< P3 F=4.0 Eeff=(7.77189411 0.0) Z0=(63.8378027 0.0) R=0.0 C=7.3202e-4 
5.00000000 0.016611 32.218 0.998838 -54.23 0.045245 -1.092
           0.998838 -54.23 0.014932 43.754 0.045827 58.638
           0.045245 -1.092 0.045827 58.638 0.997924 -68.75
!< P1 F=5.0 Eeff=(6.61534443 0.0) Z0=(50.9687599 0.0) R=0.0 C=0.0071963 
!< P2 F=5.0 Eeff=(6.61534443 0.0) Z0=(50.9687599 0.0) R=0.0 C=0.0071963 
!< P3 F=5.0 Eeff=(7.77188216 0.0) Z0=(63.8377365 0.0) R=0.0 C=7.3202e-4 
6.00000000 0.019284 19.168 0.998390 -65.07 0.053353 -19.34
           0.998390 -65.07 0.016685 34.794 0.054221 52.127
           0.053353 -19.34 0.054221 52.127 0.997103 -82.60
!< P1 F=6.0 Eeff=(6.61529487 0.0) Z0=(50.9694247 0.0) R=0.0 C=0.00719622 
!< P2 F=6.0 Eeff=(6.61529487 0.0) Z0=(50.9694247 0.0) R=0.0 C=0.00719622 
!< P3 F=6.0 Eeff=(7.77186751 0.0) Z0=(63.8376555 0.0) R=0.0 C=7.3202e-4 
7.00000000 0.021479 5.4414 0.997910 -75.90 0.060948 -37.61
           0.997910 -75.90 0.017853 26.024 0.062107 45.538
           0.060948 -37.61 0.062107 45.538 0.996207 -96.50
!< P1 F=7.0 Eeff=(6.61523586 0.0) Z0=(50.9702519 0.0) R=0.0 C=0.00719619 
!< P2 F=7.0 Eeff=(6.61523586 0.0) Z0=(50.9702519 0.0) R=0.0 C=0.00719619 
!< P3 F=7.0 Eeff=(7.77184986 0.0) Z0=(63.8375583 0.0) R=0.0 C=7.32019e-4 
8.00000000 0.023076 -9.022 0.997422 -86.72 0.067948 -55.88
           0.997422 -86.72 0.018402 17.511 0.069360 38.890
           0.067948 -55.88 0.069360 38.890 0.995275 -110.4
!< P1 F=8.0 Eeff=(6.61516796 0.0) Z0=(50.9712323 0.0) R=0.0 C=0.00719613 
!< P2 F=8.0 Eeff=(6.61516796 0.0) Z0=(50.9712323 0.0) R=0.0 C=0.00719613 
!< P3 F=8.0 Eeff=(7.77183077 0.0) Z0=(63.8374513 0.0) R=0.0 C=7.32019e-4 
