! Sonnet Data File
! From: emgraph Version : 16.56
! From Project: 190426_coupler_test
! Data is De-embedded 
! Data File Written: 05/06/2019 15:59:44
!< HDATE 04/25/2019 10:48:44
!< MDATE 04/25/2019 10:59:35
!< PARAMS
!< tandelta = 0.0
!< t_aSi = 0.25
!< W = 10.0
!< Lcoupler = 3200.0
!< END PARAMS
# GHZ S MA R 50.0 !  non standard terminations in data
! TERM 50.00000 0.000000 50.00000 0.000000 63.84000 0.000000
2.00000000 0.008220 73.456 0.999483 -21.74 0.031082 44.082
           0.999483 -21.74 0.007764 69.204 0.031199 69.926
           0.031082 44.082 0.031199 69.926 0.999030 -44.65
!< P1 F=2.0 Eeff=(6.61542829 0.0) Z0=(50.9674668 0.0) R=0.0 C=0.00719637 
!< P2 F=2.0 Eeff=(6.61542829 0.0) Z0=(50.9674668 0.0) R=0.0 C=0.00719637 
!< P3 F=2.0 Eeff=(7.77190733 0.0) Z0=(63.8378797 0.0) R=0.0 C=7.32021e-4 
3.00000000 0.012637 63.555 0.998879 -32.60 0.045608 21.083
           0.998879 -32.60 0.011257 58.841 0.045968 59.731
           0.045608 21.083 0.045968 59.731 0.997901 -67.10
!< P1 F=3.0 Eeff=(6.61540693 0.0) Z0=(50.967774 0.0) R=0.0 C=0.00719639 
!< P2 F=3.0 Eeff=(6.61540693 0.0) Z0=(50.967774 0.0) R=0.0 C=0.00719639 
!< P3 F=3.0 Eeff=(7.77190257 0.0) Z0=(63.8378507 0.0) R=0.0 C=7.3202e-4 
4.00000000 0.017127 52.276 0.998116 -43.45 0.058913 -1.955
           0.998116 -43.45 0.014301 48.519 0.059662 49.375
           0.058913 -1.955 0.059662 49.375 0.996479 -89.67
!< P1 F=4.0 Eeff=(6.61538316 0.0) Z0=(50.9682073 0.0) R=0.0 C=0.00719633 
!< P2 F=4.0 Eeff=(6.61538316 0.0) Z0=(50.9682073 0.0) R=0.0 C=0.00719633 
!< P3 F=4.0 Eeff=(7.77189411 0.0) Z0=(63.8378027 0.0) R=0.0 C=7.3202e-4 
5.00000000 0.021383 39.737 0.997275 -54.28 0.070600 -25.03
           0.997275 -54.28 0.016781 38.247 0.071833 38.846
           0.070600 -25.03 0.071833 38.846 0.994915 -112.4
!< P1 F=5.0 Eeff=(6.61534443 0.0) Z0=(50.9687599 0.0) R=0.0 C=0.0071963 
!< P2 F=5.0 Eeff=(6.61534443 0.0) Z0=(50.9687599 0.0) R=0.0 C=0.0071963 
!< P3 F=5.0 Eeff=(7.77188216 0.0) Z0=(63.8377365 0.0) R=0.0 C=7.3202e-4 
6.00000000 0.025005 26.164 0.996458 -65.10 0.080294 -48.14
           0.996458 -65.10 0.018606 28.031 0.082013 28.156
           0.080294 -48.14 0.082013 28.156 0.993392 -135.2
!< P1 F=6.0 Eeff=(6.61529487 0.0) Z0=(50.9694247 0.0) R=0.0 C=0.00719622 
!< P2 F=6.0 Eeff=(6.61529487 0.0) Z0=(50.9694247 0.0) R=0.0 C=0.00719622 
!< P3 F=6.0 Eeff=(7.77186751 0.0) Z0=(63.8376555 0.0) R=0.0 C=7.3202e-4 
7.00000000 0.027593 11.813 0.995768 -75.90 0.087668 -71.27
           0.995768 -75.90 0.019713 17.873 0.089769 17.338
           0.087668 -71.27 0.089769 17.338 0.992097 -158.1
!< P1 F=7.0 Eeff=(6.61523586 0.0) Z0=(50.9702519 0.0) R=0.0 C=0.00719619 
!< P2 F=7.0 Eeff=(6.61523586 0.0) Z0=(50.9702519 0.0) R=0.0 C=0.00719619 
!< P3 F=7.0 Eeff=(7.77184986 0.0) Z0=(63.8375583 0.0) R=0.0 C=7.32019e-4 
8.00000000 0.028826 -3.078 0.995299 -86.68 0.092463 -94.38
           0.995299 -86.68 0.020061 7.7701 0.094752 6.4404
           0.092463 -94.38 0.094752 6.4404 0.991198 178.87
!< P1 F=8.0 Eeff=(6.61516796 0.0) Z0=(50.9712323 0.0) R=0.0 C=0.00719613 
!< P2 F=8.0 Eeff=(6.61516796 0.0) Z0=(50.9712323 0.0) R=0.0 C=0.00719613 
!< P3 F=8.0 Eeff=(7.77183078 0.0) Z0=(63.8374513 0.0) R=0.0 C=7.32019e-4 
