! Sonnet Data File
! From: emgraph Version : 16.56
! From Project: 190426_coupler_test
! Data is De-embedded 
! Data File Written: 05/06/2019 15:59:44
!< HDATE 04/25/2019 10:48:44
!< MDATE 04/25/2019 10:59:35
!< PARAMS
!< tandelta = 0.0
!< t_aSi = 0.25
!< W = 10.0
!< Lcoupler = 1400.0
!< END PARAMS
# GHZ S MA R 50.0 !  non standard terminations in data
! TERM 50.00000 0.000000 50.00000 0.000000 63.84000 0.000000
2.00000000 0.006497 66.600 0.999883 -21.68 0.013837 57.239
           0.999883 -21.68 0.006428 71.622 0.013869 80.605
           0.013837 57.239 0.013869 80.605 0.999808 -20.82
!< P1 F=2.0 Eeff=(6.61542829 0.0) Z0=(50.9674668 0.0) R=0.0 C=0.00719637 
!< P2 F=2.0 Eeff=(6.61542829 0.0) Z0=(50.9674668 0.0) R=0.0 C=0.00719637 
!< P3 F=2.0 Eeff=(7.77190733 0.0) Z0=(63.8378797 0.0) R=0.0 C=7.32021e-4 
3.00000000 0.009560 54.680 0.999741 -32.52 0.020670 40.856
           0.999741 -32.52 0.009338 62.502 0.020771 75.846
           0.020670 40.856 0.020771 75.846 0.999571 -31.24
!< P1 F=3.0 Eeff=(6.61540693 0.0) Z0=(50.967774 0.0) R=0.0 C=0.00719639 
!< P2 F=3.0 Eeff=(6.61540693 0.0) Z0=(50.967774 0.0) R=0.0 C=0.00719639 
!< P3 F=3.0 Eeff=(7.77190257 0.0) Z0=(63.8378507 0.0) R=0.0 C=7.3202e-4 
4.00000000 0.012393 42.497 0.999548 -43.36 0.027399 24.469
           0.999548 -43.36 0.011896 53.470 0.027619 71.024
           0.027399 24.469 0.027619 71.024 0.999243 -41.67
!< P1 F=4.0 Eeff=(6.61538316 0.0) Z0=(50.9682073 0.0) R=0.0 C=0.00719633 
!< P2 F=4.0 Eeff=(6.61538316 0.0) Z0=(50.9682073 0.0) R=0.0 C=0.00719633 
!< P3 F=4.0 Eeff=(7.77189411 0.0) Z0=(63.8378027 0.0) R=0.0 C=7.3202e-4 
5.00000000 0.014912 29.967 0.999311 -54.20 0.033990 8.0764
           0.999311 -54.20 0.014006 44.566 0.034374 66.131
           0.033990 8.0764 0.034374 66.131 0.998831 -52.12
!< P1 F=5.0 Eeff=(6.61534443 0.0) Z0=(50.9687599 0.0) R=0.0 C=0.0071963 
!< P2 F=5.0 Eeff=(6.61534443 0.0) Z0=(50.9687599 0.0) R=0.0 C=0.0071963 
!< P3 F=5.0 Eeff=(7.77188216 0.0) Z0=(63.8377365 0.0) R=0.0 C=7.3202e-4 
6.00000000 0.017031 16.999 0.999038 -65.03 0.040410 -8.322
           0.999038 -65.03 0.015593 35.840 0.040986 61.170
           0.040410 -8.322 0.040986 61.170 0.998342 -62.58
!< P1 F=6.0 Eeff=(6.61529487 0.0) Z0=(50.9694247 0.0) R=0.0 C=0.00719622 
!< P2 F=6.0 Eeff=(6.61529487 0.0) Z0=(50.9694247 0.0) R=0.0 C=0.00719622 
!< P3 F=6.0 Eeff=(7.77186751 0.0) Z0=(63.8376555 0.0) R=0.0 C=7.3202e-4 
7.00000000 0.018669 3.4921 0.998738 -75.86 0.046622 -24.73
           0.998738 -75.86 0.016604 27.362 0.047397 56.152
           0.046622 -24.73 0.047397 56.152 0.997787 -73.07
!< P1 F=7.0 Eeff=(6.61523586 0.0) Z0=(50.9702519 0.0) R=0.0 C=0.00719619 
!< P2 F=7.0 Eeff=(6.61523586 0.0) Z0=(50.9702519 0.0) R=0.0 C=0.00719619 
!< P3 F=7.0 Eeff=(7.77184986 0.0) Z0=(63.8375583 0.0) R=0.0 C=7.32019e-4 
8.00000000 0.019759 -10.68 0.998420 -86.69 0.052595 -41.14
           0.998420 -86.69 0.017007 19.228 0.053548 51.092
           0.052595 -41.14 0.053548 51.092 0.997179 -83.58
!< P1 F=8.0 Eeff=(6.61516796 0.0) Z0=(50.9712323 0.0) R=0.0 C=0.00719613 
!< P2 F=8.0 Eeff=(6.61516796 0.0) Z0=(50.9712323 0.0) R=0.0 C=0.00719613 
!< P3 F=8.0 Eeff=(7.77183078 0.0) Z0=(63.8374513 0.0) R=0.0 C=7.32019e-4 
