! Sonnet Data File
! From: emgraph Version : 16.56
! From Project: 190426_coupler_test
! Data is De-embedded 
! Data File Written: 05/06/2019 15:59:44
!< HDATE 04/25/2019 10:48:44
!< MDATE 04/25/2019 10:59:35
!< PARAMS
!< tandelta = 0.0
!< t_aSi = 0.25
!< W = 10.0
!< Lcoupler = 2200.0
!< END PARAMS
# GHZ S MA R 50.0 !  non standard terminations in data
! TERM 50.00000 0.000000 50.00000 0.000000 63.84000 0.000000
2.00000000 0.007224 69.022 0.999741 -21.71 0.021591 51.394
           0.999741 -21.71 0.007038 71.002 0.021653 75.869
           0.021591 51.394 0.021653 75.869 0.999532 -31.40
!< P1 F=2.0 Eeff=(6.61542829 0.0) Z0=(50.9674668 0.0) R=0.0 C=0.00719637 
!< P2 F=2.0 Eeff=(6.61542829 0.0) Z0=(50.9674668 0.0) R=0.0 C=0.00719637 
!< P3 F=2.0 Eeff=(7.77190733 0.0) Z0=(63.8378797 0.0) R=0.0 C=7.32021e-4 
3.00000000 0.010831 57.943 0.999427 -32.56 0.032056 32.078
           0.999427 -32.56 0.010240 61.550 0.032250 68.714
           0.032056 32.078 0.032250 68.714 0.998966 -47.14
!< P1 F=3.0 Eeff=(6.61540693 0.0) Z0=(50.967774 0.0) R=0.0 C=0.00719639 
!< P2 F=3.0 Eeff=(6.61540693 0.0) Z0=(50.967774 0.0) R=0.0 C=0.00719639 
!< P3 F=3.0 Eeff=(7.77190257 0.0) Z0=(63.8378507 0.0) R=0.0 C=7.3202e-4 
4.00000000 0.014362 46.253 0.999009 -43.41 0.042123 12.747
           0.999009 -43.41 0.013075 52.156 0.042540 61.465
           0.042123 12.747 0.042540 61.465 0.998206 -62.93
!< P1 F=4.0 Eeff=(6.61538316 0.0) Z0=(50.9682073 0.0) R=0.0 C=0.00719633 
!< P2 F=4.0 Eeff=(6.61538316 0.0) Z0=(50.9682073 0.0) R=0.0 C=0.00719633 
!< P3 F=4.0 Eeff=(7.77189411 0.0) Z0=(63.8378027 0.0) R=0.0 C=7.3202e-4 
5.00000000 0.017701 33.866 0.998508 -54.25 0.051658 -6.602
           0.998508 -54.25 0.015446 42.845 0.052377 54.111
           0.051658 -6.602 0.052377 54.111 0.997290 -78.77
!< P1 F=5.0 Eeff=(6.61534443 0.0) Z0=(50.9687599 0.0) R=0.0 C=0.0071963 
!< P2 F=5.0 Eeff=(6.61534443 0.0) Z0=(50.9687599 0.0) R=0.0 C=0.0071963 
!< P3 F=5.0 Eeff=(7.77188216 0.0) Z0=(63.8377365 0.0) R=0.0 C=7.3202e-4 
6.00000000 0.020692 20.747 0.997952 -65.08 0.060532 -25.97
           0.997952 -65.08 0.017272 33.645 0.061595 46.653
           0.060532 -25.97 0.061595 46.653 0.996264 -94.67
!< P1 F=6.0 Eeff=(6.61529487 0.0) Z0=(50.9694247 0.0) R=0.0 C=0.00719622 
!< P2 F=6.0 Eeff=(6.61529487 0.0) Z0=(50.9694247 0.0) R=0.0 C=0.00719622 
!< P3 F=6.0 Eeff=(7.77186751 0.0) Z0=(63.8376555 0.0) R=0.0 C=7.3202e-4 
7.00000000 0.023164 6.8885 0.997374 -75.91 0.068614 -45.35
           0.997374 -75.91 0.018496 24.591 0.070017 39.104
           0.068614 -45.35 0.070017 39.104 0.995183 -110.6
!< P1 F=7.0 Eeff=(6.61523586 0.0) Z0=(50.9702519 0.0) R=0.0 C=0.00719619 
!< P2 F=7.0 Eeff=(6.61523586 0.0) Z0=(50.9702519 0.0) R=0.0 C=0.00719619 
!< P3 F=7.0 Eeff=(7.77184986 0.0) Z0=(63.8375583 0.0) R=0.0 C=7.32019e-4 
8.00000000 0.024948 -7.713 0.996812 -86.72 0.075784 -64.76
           0.996812 -86.72 0.019085 15.730 0.077469 31.483
           0.075784 -64.76 0.077469 31.483 0.994110 -126.7
!< P1 F=8.0 Eeff=(6.61516796 0.0) Z0=(50.9712323 0.0) R=0.0 C=0.00719613 
!< P2 F=8.0 Eeff=(6.61516796 0.0) Z0=(50.9712323 0.0) R=0.0 C=0.00719613 
!< P3 F=8.0 Eeff=(7.77183078 0.0) Z0=(63.8374513 0.0) R=0.0 C=7.32019e-4 
