! Sonnet Data File
! From: emgraph Version : 16.56
! From Project: 190426_coupler_test
! Data is De-embedded 
! Data File Written: 05/06/2019 15:59:44
!< HDATE 04/25/2019 10:48:44
!< MDATE 04/25/2019 10:59:35
!< PARAMS
!< tandelta = 0.0
!< t_aSi = 0.25
!< W = 10.0
!< Lcoupler = 700.0
!< END PARAMS
# GHZ S MA R 50.0 !  non standard terminations in data
! TERM 50.00000 0.000000 50.00000 0.000000 63.84000 0.000000
2.00000000 0.005902 65.789 0.999958 -21.66 0.006978 62.357
           0.999958 -21.66 0.005885 71.341 0.006992 84.735
           0.006978 62.357 0.006992 84.735 0.999951 -11.57
!< P1 F=2.0 Eeff=(6.61542829 0.0) Z0=(50.9674668 0.0) R=0.0 C=0.00719637 
!< P2 F=2.0 Eeff=(6.61542829 0.0) Z0=(50.9674668 0.0) R=0.0 C=0.00719637 
!< P3 F=2.0 Eeff=(7.77190732 0.0) Z0=(63.8378797 0.0) R=0.0 C=7.32021e-4 
3.00000000 0.008582 53.598 0.999909 -32.49 0.010456 48.535
           0.999909 -32.49 0.008529 62.068 0.010500 82.052
           0.010456 48.535 0.010500 82.052 0.999890 -17.35
!< P1 F=3.0 Eeff=(6.61540693 0.0) Z0=(50.967774 0.0) R=0.0 C=0.00719639 
!< P2 F=3.0 Eeff=(6.61540693 0.0) Z0=(50.967774 0.0) R=0.0 C=0.00719639 
!< P3 F=3.0 Eeff=(7.77190256 0.0) Z0=(63.8378507 0.0) R=0.0 C=7.3202e-4 
4.00000000 0.010947 41.300 0.999843 -43.32 0.013921 34.714
           0.999843 -43.32 0.010825 52.869 0.014016 79.318
           0.013921 34.714 0.014016 79.318 0.999805 -23.14
!< P1 F=4.0 Eeff=(6.61538316 0.0) Z0=(50.9682073 0.0) R=0.0 C=0.00719633 
!< P2 F=4.0 Eeff=(6.61538316 0.0) Z0=(50.9682073 0.0) R=0.0 C=0.00719633 
!< P3 F=4.0 Eeff=(7.7718941 0.0) Z0=(63.8378027 0.0) R=0.0 C=7.3202e-4 
5.00000000 0.012908 28.846 0.999766 -54.14 0.017368 20.892
           0.999766 -54.14 0.012681 43.779 0.017534 76.527
           0.017368 20.892 0.017534 76.527 0.999695 -28.93
!< P1 F=5.0 Eeff=(6.61534443 0.0) Z0=(50.9687599 0.0) R=0.0 C=0.0071963 
!< P2 F=5.0 Eeff=(6.61534443 0.0) Z0=(50.9687599 0.0) R=0.0 C=0.0071963 
!< P3 F=5.0 Eeff=(7.77188215 0.0) Z0=(63.8377365 0.0) R=0.0 C=7.3202e-4 
6.00000000 0.014388 16.175 0.999680 -64.97 0.020792 7.0692
           0.999680 -64.97 0.014020 34.842 0.021042 73.683
           0.020792 7.0692 0.021042 73.683 0.999562 -34.72
!< P1 F=6.0 Eeff=(6.61529487 0.0) Z0=(50.9694247 0.0) R=0.0 C=0.00719622 
!< P2 F=6.0 Eeff=(6.61529487 0.0) Z0=(50.9694247 0.0) R=0.0 C=0.00719622 
!< P3 F=6.0 Eeff=(7.7718675 0.0) Z0=(63.8376554 0.0) R=0.0 C=7.3202e-4 
7.00000000 0.015330 3.2041 0.999590 -75.79 0.024191 -6.754
           0.999590 -75.79 0.014787 26.122 0.024526 70.796
           0.024191 -6.754 0.024526 70.796 0.999406 -40.51
!< P1 F=7.0 Eeff=(6.61523586 0.0) Z0=(50.9702519 0.0) R=0.0 C=0.00719619 
!< P2 F=7.0 Eeff=(6.61523586 0.0) Z0=(50.9702519 0.0) R=0.0 C=0.00719619 
!< P3 F=7.0 Eeff=(7.77184985 0.0) Z0=(63.8375582 0.0) R=0.0 C=7.32019e-4 
8.00000000 0.015694 -10.18 0.999497 -86.62 0.027558 -20.58
           0.999497 -86.62 0.014951 17.715 0.027968 67.882
           0.027558 -20.58 0.027968 67.882 0.999229 -46.31
!< P1 F=8.0 Eeff=(6.61516796 0.0) Z0=(50.9712323 0.0) R=0.0 C=0.00719613 
!< P2 F=8.0 Eeff=(6.61516796 0.0) Z0=(50.9712323 0.0) R=0.0 C=0.00719613 
!< P3 F=8.0 Eeff=(7.77183077 0.0) Z0=(63.8374513 0.0) R=0.0 C=7.32019e-4 
