! Sonnet Data File
! From: emgraph Version : 16.56
! From Project: 190426_coupler_test
! Data is De-embedded 
! Data File Written: 05/06/2019 15:59:44
!< HDATE 04/25/2019 10:48:44
!< MDATE 04/25/2019 10:59:35
!< PARAMS
!< tandelta = 0.0
!< t_aSi = 0.25
!< W = 10.0
!< Lcoupler = 600.0
!< END PARAMS
# GHZ S MA R 50.0 !  non standard terminations in data
! TERM 50.00000 0.000000 50.00000 0.000000 63.84000 0.000000
2.00000000 0.005819 65.804 0.999965 -21.65 0.005995 63.090
           0.999965 -21.65 0.005807 71.220 0.006006 85.323
           0.005995 63.090 0.006006 85.323 0.999964 -10.25
!< P1 F=2.0 Eeff=(6.61542829 0.0) Z0=(50.9674668 0.0) R=0.0 C=0.00719637 
!< P2 F=2.0 Eeff=(6.61542829 0.0) Z0=(50.9674668 0.0) R=0.0 C=0.00719637 
!< P3 F=2.0 Eeff=(7.77190719 0.0) Z0=(63.8378775 0.0) R=0.0 C=7.3202e-4 
3.00000000 0.008452 53.635 0.999924 -32.48 0.008985 49.635
           0.999924 -32.48 0.008413 61.883 0.009022 82.935
           0.008985 49.635 0.009022 82.935 0.999919 -15.37
!< P1 F=3.0 Eeff=(6.61540693 0.0) Z0=(50.967774 0.0) R=0.0 C=0.00719639 
!< P2 F=3.0 Eeff=(6.61540693 0.0) Z0=(50.967774 0.0) R=0.0 C=0.00719639 
!< P3 F=3.0 Eeff=(7.77190244 0.0) Z0=(63.8378485 0.0) R=0.0 C=7.3202e-4 
4.00000000 0.010764 41.373 0.999870 -43.31 0.011967 36.180
           0.999870 -43.31 0.010674 52.612 0.012047 80.496
           0.011967 36.180 0.012047 80.496 0.999856 -20.50
!< P1 F=4.0 Eeff=(6.61538316 0.0) Z0=(50.9682073 0.0) R=0.0 C=0.00719633 
!< P2 F=4.0 Eeff=(6.61538316 0.0) Z0=(50.9682073 0.0) R=0.0 C=0.00719633 
!< P3 F=4.0 Eeff=(7.77189398 0.0) Z0=(63.8378005 0.0) R=0.0 C=7.3202e-4 
5.00000000 0.012666 28.978 0.999808 -54.13 0.014937 22.725
           0.999808 -54.13 0.012498 43.440 0.015078 78.001
           0.014937 22.725 0.015078 78.001 0.999775 -25.62
!< P1 F=5.0 Eeff=(6.61534443 0.0) Z0=(50.9687599 0.0) R=0.0 C=0.0071963 
!< P2 F=5.0 Eeff=(6.61534443 0.0) Z0=(50.9687599 0.0) R=0.0 C=0.0071963 
!< P3 F=5.0 Eeff=(7.77188202 0.0) Z0=(63.8377343 0.0) R=0.0 C=7.3202e-4 
6.00000000 0.014081 16.396 0.999741 -64.96 0.017893 9.2699
           0.999741 -64.96 0.013809 34.409 0.018104 75.455
           0.017893 9.2699 0.018104 75.455 0.999676 -30.75
!< P1 F=6.0 Eeff=(6.61529487 0.0) Z0=(50.9694247 0.0) R=0.0 C=0.00719622 
!< P2 F=6.0 Eeff=(6.61529487 0.0) Z0=(50.9694247 0.0) R=0.0 C=0.00719622 
!< P3 F=6.0 Eeff=(7.77186738 0.0) Z0=(63.8376532 0.0) R=0.0 C=7.32019e-4 
7.00000000 0.014953 3.5533 0.999671 -75.78 0.020833 -4.186
           0.999671 -75.78 0.014551 25.576 0.021116 72.866
           0.020833 -4.186 0.021116 72.866 0.999560 -35.88
!< P1 F=7.0 Eeff=(6.61523586 0.0) Z0=(50.9702519 0.0) R=0.0 C=0.00719619 
!< P2 F=7.0 Eeff=(6.61523586 0.0) Z0=(50.9702519 0.0) R=0.0 C=0.00719619 
!< P3 F=7.0 Eeff=(7.77184973 0.0) Z0=(63.837556 0.0) R=0.0 C=7.32019e-4 
8.00000000 0.015245 -9.657 0.999602 -86.61 0.023753 -17.64
           0.999602 -86.61 0.014694 17.028 0.024098 70.252
           0.023753 -17.64 0.024098 70.252 0.999427 -41.01
!< P1 F=8.0 Eeff=(6.61516796 0.0) Z0=(50.9712323 0.0) R=0.0 C=0.00719613 
!< P2 F=8.0 Eeff=(6.61516796 0.0) Z0=(50.9712323 0.0) R=0.0 C=0.00719613 
!< P3 F=8.0 Eeff=(7.77183064 0.0) Z0=(63.8374491 0.0) R=0.0 C=7.32019e-4 
