! Sonnet Data File
! From: emgraph Version : 16.56
! From Project: 190426_coupler_test
! Data is De-embedded 
! Data File Written: 05/06/2019 15:59:44
!< HDATE 04/25/2019 10:48:44
!< MDATE 04/25/2019 10:59:35
!< PARAMS
!< tandelta = 0.0
!< t_aSi = 0.25
!< W = 10.0
!< Lcoupler = 500.0
!< END PARAMS
# GHZ S MA R 50.0 !  non standard terminations in data
! TERM 50.00000 0.000000 50.00000 0.000000 63.84000 0.000000
2.00000000 0.005735 65.860 0.999971 -21.65 0.005011 63.824
           0.999971 -21.65 0.005727 71.075 0.005020 85.909
           0.005011 63.824 0.005020 85.909 0.999975 -8.925
!< P1 F=2.0 Eeff=(6.61542829 0.0) Z0=(50.9674668 0.0) R=0.0 C=0.00719637 
!< P2 F=2.0 Eeff=(6.61542829 0.0) Z0=(50.9674668 0.0) R=0.0 C=0.00719637 
!< P3 F=2.0 Eeff=(7.77190719 0.0) Z0=(63.8378775 0.0) R=0.0 C=7.3202e-4 
3.00000000 0.008323 53.731 0.999937 -32.48 0.007512 50.736
           0.999937 -32.48 0.008296 61.658 0.007542 83.815
           0.007512 50.736 0.007542 83.815 0.999943 -13.39
!< P1 F=3.0 Eeff=(6.61540693 0.0) Z0=(50.967774 0.0) R=0.0 C=0.00719639 
!< P2 F=3.0 Eeff=(6.61540693 0.0) Z0=(50.967774 0.0) R=0.0 C=0.00719639 
!< P3 F=3.0 Eeff=(7.77190244 0.0) Z0=(63.8378485 0.0) R=0.0 C=7.3202e-4 
4.00000000 0.010586 41.525 0.999894 -43.30 0.010008 37.649
           0.999894 -43.30 0.010524 52.302 0.010074 81.671
           0.010008 37.649 0.010074 81.671 0.999899 -17.85
!< P1 F=4.0 Eeff=(6.61538316 0.0) Z0=(50.9682073 0.0) R=0.0 C=0.00719633 
!< P2 F=4.0 Eeff=(6.61538316 0.0) Z0=(50.9682073 0.0) R=0.0 C=0.00719633 
!< P3 F=4.0 Eeff=(7.77189397 0.0) Z0=(63.8378005 0.0) R=0.0 C=7.3202e-4 
5.00000000 0.012435 29.207 0.999845 -54.12 0.012497 24.561
           0.999845 -54.12 0.012318 43.033 0.012613 79.472
           0.012497 24.561 0.012613 79.472 0.999842 -22.32
!< P1 F=5.0 Eeff=(6.61534443 0.0) Z0=(50.9687599 0.0) R=0.0 C=0.0071963 
!< P2 F=5.0 Eeff=(6.61534443 0.0) Z0=(50.9687599 0.0) R=0.0 C=0.0071963 
!< P3 F=5.0 Eeff=(7.77188202 0.0) Z0=(63.8377343 0.0) R=0.0 C=7.3202e-4 
6.00000000 0.013794 16.731 0.999793 -64.95 0.014978 11.474
           0.999793 -64.95 0.013603 33.889 0.015152 77.221
           0.014978 11.474 0.015152 77.221 0.999773 -26.78
!< P1 F=6.0 Eeff=(6.61529487 0.0) Z0=(50.9694247 0.0) R=0.0 C=0.00719622 
!< P2 F=6.0 Eeff=(6.61529487 0.0) Z0=(50.9694247 0.0) R=0.0 C=0.00719622 
!< P3 F=6.0 Eeff=(7.77186737 0.0) Z0=(63.8376532 0.0) R=0.0 C=7.32019e-4 
7.00000000 0.014608 4.0345 0.999741 -75.77 0.017450 -1.613
           0.999741 -75.77 0.014326 24.921 0.017682 74.930
           0.017450 -1.613 0.017682 74.930 0.999691 -31.25
!< P1 F=7.0 Eeff=(6.61523586 0.0) Z0=(50.9702519 0.0) R=0.0 C=0.00719619 
!< P2 F=7.0 Eeff=(6.61523586 0.0) Z0=(50.9702519 0.0) R=0.0 C=0.00719619 
!< P3 F=7.0 Eeff=(7.77184973 0.0) Z0=(63.837556 0.0) R=0.0 C=7.32019e-4 
8.00000000 0.014841 -8.976 0.999692 -86.59 0.019910 -14.70
           0.999692 -86.59 0.014453 16.206 0.020193 72.613
           0.019910 -14.70 0.020193 72.613 0.999598 -35.72
!< P1 F=8.0 Eeff=(6.61516796 0.0) Z0=(50.9712323 0.0) R=0.0 C=0.00719613 
!< P2 F=8.0 Eeff=(6.61516796 0.0) Z0=(50.9712323 0.0) R=0.0 C=0.00719613 
!< P3 F=8.0 Eeff=(7.77183064 0.0) Z0=(63.8374491 0.0) R=0.0 C=7.32019e-4 
