! Sonnet Data File
! From: emgraph Version : 16.56
! From Project: 190426_coupler_test
! Data is De-embedded 
! Data File Written: 05/06/2019 15:59:44
!< HDATE 04/25/2019 10:48:44
!< MDATE 04/25/2019 10:59:35
!< PARAMS
!< tandelta = 0.0
!< t_aSi = 0.25
!< W = 10.0
!< Lcoupler = 300.0
!< END PARAMS
# GHZ S MA R 50.0 !  non standard terminations in data
! TERM 50.00000 0.000000 50.00000 0.000000 63.84000 0.000000
2.00000000 0.005562 66.119 0.999980 -21.64 0.003042 65.302
           0.999980 -21.64 0.005559 70.685 0.003047 87.072
           0.003042 65.302 0.003047 87.072 0.999991 -6.284
!< P1 F=2.0 Eeff=(6.61542829 0.0) Z0=(50.9674668 0.0) R=0.0 C=0.00719637 
!< P2 F=2.0 Eeff=(6.61542829 0.0) Z0=(50.9674668 0.0) R=0.0 C=0.00719637 
!< P3 F=2.0 Eeff=(7.77190671 0.0) Z0=(63.8378604 0.0) R=0.0 C=7.32018e-4 
3.00000000 0.008063 54.142 0.999957 -32.46 0.004561 52.953
           0.999957 -32.46 0.008053 61.061 0.004579 85.561
           0.004561 52.953 0.004579 85.561 0.999979 -9.426
!< P1 F=3.0 Eeff=(6.61540693 0.0) Z0=(50.967774 0.0) R=0.0 C=0.00719639 
!< P2 F=3.0 Eeff=(6.61540693 0.0) Z0=(50.967774 0.0) R=0.0 C=0.00719639 
!< P3 F=3.0 Eeff=(7.77190196 0.0) Z0=(63.8378314 0.0) R=0.0 C=7.32018e-4 
4.00000000 0.010239 42.115 0.999929 -43.28 0.006080 40.605
           0.999929 -43.28 0.010215 51.479 0.006119 84.001
           0.006080 40.605 0.006119 84.001 0.999963 -12.57
!< P1 F=4.0 Eeff=(6.61538316 0.0) Z0=(50.9682073 0.0) R=0.0 C=0.00719633 
!< P2 F=4.0 Eeff=(6.61538316 0.0) Z0=(50.9682073 0.0) R=0.0 C=0.00719633 
!< P3 F=4.0 Eeff=(7.77189349 0.0) Z0=(63.8377834 0.0) R=0.0 C=7.32018e-4 
5.00000000 0.012001 30.018 0.999899 -54.10 0.007597 28.257
           0.999899 -54.10 0.011958 41.959 0.007665 82.387
           0.007597 28.257 0.007665 82.387 0.999942 -15.71
!< P1 F=5.0 Eeff=(6.61534443 0.0) Z0=(50.9687599 0.0) R=0.0 C=0.0071963 
!< P2 F=5.0 Eeff=(6.61534443 0.0) Z0=(50.9687599 0.0) R=0.0 C=0.0071963 
!< P3 F=5.0 Eeff=(7.77188154 0.0) Z0=(63.8377172 0.0) R=0.0 C=7.32017e-4 
6.00000000 0.013277 17.821 0.999870 -64.92 0.009112 15.909
           0.999870 -64.92 0.013206 32.527 0.009214 80.723
           0.009112 15.909 0.009214 80.723 0.999916 -18.85
!< P1 F=6.0 Eeff=(6.61529487 0.0) Z0=(50.9694247 0.0) R=0.0 C=0.00719622 
!< P2 F=6.0 Eeff=(6.61529487 0.0) Z0=(50.9694247 0.0) R=0.0 C=0.00719622 
!< P3 F=6.0 Eeff=(7.77186689 0.0) Z0=(63.8376361 0.0) R=0.0 C=7.32017e-4 
7.00000000 0.014013 5.4836 0.999845 -75.74 0.010624 3.5616
           0.999845 -75.74 0.013908 23.219 0.010761 79.019
           0.010624 3.5616 0.010761 79.019 0.999886 -22.00
!< P1 F=7.0 Eeff=(6.61523586 0.0) Z0=(50.9702519 0.0) R=0.0 C=0.00719619 
!< P2 F=7.0 Eeff=(6.61523586 0.0) Z0=(50.9702519 0.0) R=0.0 C=0.00719619 
!< P3 F=7.0 Eeff=(7.77184925 0.0) Z0=(63.8375389 0.0) R=0.0 C=7.32017e-4 
8.00000000 0.014176 -7.056 0.999826 -86.56 0.012134 -8.786
           0.999826 -86.56 0.014031 14.086 0.012301 77.289
           0.012134 -8.786 0.012301 77.289 0.999851 -25.14
!< P1 F=8.0 Eeff=(6.61516796 0.0) Z0=(50.9712323 0.0) R=0.0 C=0.00719613 
!< P2 F=8.0 Eeff=(6.61516796 0.0) Z0=(50.9712323 0.0) R=0.0 C=0.00719613 
!< P3 F=8.0 Eeff=(7.77183016 0.0) Z0=(63.837432 0.0) R=0.0 C=7.32016e-4 
