! Sonnet Data File
! From: emgraph Version : 16.56
! From Project: 190426_coupler_test
! Data is De-embedded 
! Data File Written: 05/06/2019 15:59:44
!< HDATE 04/25/2019 10:48:44
!< MDATE 04/25/2019 10:59:35
!< PARAMS
!< tandelta = 0.0
!< t_aSi = 0.25
!< W = 10.0
!< Lcoupler = 2400.0
!< END PARAMS
# GHZ S MA R 50.0 !  non standard terminations in data
! TERM 50.00000 0.000000 50.00000 0.000000 63.84000 0.000000
2.00000000 0.007415 69.809 0.999696 -21.72 0.023510 49.933
           0.999696 -21.72 0.007187 70.722 0.023581 74.682
           0.023510 49.933 0.023581 74.682 0.999445 -34.05
!< P1 F=2.0 Eeff=(6.61542829 0.0) Z0=(50.9674668 0.0) R=0.0 C=0.00719637 
!< P2 F=2.0 Eeff=(6.61542829 0.0) Z0=(50.9674668 0.0) R=0.0 C=0.00719637 
!< P3 F=2.0 Eeff=(7.77190733 0.0) Z0=(63.8378797 0.0) R=0.0 C=7.32021e-4 
3.00000000 0.011174 58.975 0.999331 -32.57 0.034836 29.881
           0.999331 -32.57 0.010456 61.124 0.035058 66.923
           0.034836 29.881 0.035058 66.923 0.998778 -51.12
!< P1 F=3.0 Eeff=(6.61540693 0.0) Z0=(50.967774 0.0) R=0.0 C=0.00719639 
!< P2 F=3.0 Eeff=(6.61540693 0.0) Z0=(50.967774 0.0) R=0.0 C=0.00719639 
!< P3 F=3.0 Eeff=(7.77190257 0.0) Z0=(63.8378507 0.0) R=0.0 C=7.3202e-4 
4.00000000 0.014896 47.403 0.998847 -43.42 0.045645 9.8113
           0.998847 -43.42 0.013348 51.575 0.046122 59.060
           0.045645 9.8113 0.046122 59.060 0.997892 -68.26
!< P1 F=4.0 Eeff=(6.61538316 0.0) Z0=(50.9682073 0.0) R=0.0 C=0.00719633 
!< P2 F=4.0 Eeff=(6.61538316 0.0) Z0=(50.9682073 0.0) R=0.0 C=0.00719633 
!< P3 F=4.0 Eeff=(7.77189411 0.0) Z0=(63.8378027 0.0) R=0.0 C=7.3202e-4 
5.00000000 0.018443 35.027 0.998273 -54.26 0.055766 -10.28
           0.998273 -54.26 0.015764 42.096 0.056582 51.080
           0.055766 -10.28 0.056582 51.080 0.996839 -85.46
!< P1 F=5.0 Eeff=(6.61534443 0.0) Z0=(50.9687599 0.0) R=0.0 C=0.0071963 
!< P2 F=5.0 Eeff=(6.61534443 0.0) Z0=(50.9687599 0.0) R=0.0 C=0.0071963 
!< P3 F=5.0 Eeff=(7.77188216 0.0) Z0=(63.8377365 0.0) R=0.0 C=7.3202e-4 
6.00000000 0.021626 21.845 0.997649 -65.09 0.065030 -30.39
           0.997649 -65.09 0.017622 32.709 0.066227 42.984
           0.065030 -30.39 0.066227 42.984 0.995683 -102.7
!< P1 F=6.0 Eeff=(6.61529487 0.0) Z0=(50.9694247 0.0) R=0.0 C=0.00719622 
!< P2 F=6.0 Eeff=(6.61529487 0.0) Z0=(50.9694247 0.0) R=0.0 C=0.00719622 
!< P3 F=6.0 Eeff=(7.77186751 0.0) Z0=(63.8376555 0.0) R=0.0 C=7.3202e-4 
7.00000000 0.024235 7.8936 0.997017 -75.91 0.073272 -50.53
           0.997017 -75.91 0.018863 23.440 0.074836 34.787
           0.073272 -50.53 0.074836 34.787 0.994500 -120.1
!< P1 F=7.0 Eeff=(6.61523586 0.0) Z0=(50.9702519 0.0) R=0.0 C=0.00719619 
!< P2 F=7.0 Eeff=(6.61523586 0.0) Z0=(50.9702519 0.0) R=0.0 C=0.00719619 
!< P3 F=7.0 Eeff=(7.77184986 0.0) Z0=(63.8375583 0.0) R=0.0 C=7.32019e-4 
8.00000000 0.026067 -6.789 0.996426 -86.72 0.080342 -70.68
           0.996426 -86.72 0.019451 14.324 0.082195 26.513
           0.080342 -70.68 0.082195 26.513 0.993373 -137.5
!< P1 F=8.0 Eeff=(6.61516796 0.0) Z0=(50.9712323 0.0) R=0.0 C=0.00719613 
!< P2 F=8.0 Eeff=(6.61516796 0.0) Z0=(50.9712323 0.0) R=0.0 C=0.00719613 
!< P3 F=8.0 Eeff=(7.77183078 0.0) Z0=(63.8374513 0.0) R=0.0 C=7.32019e-4 
