! Sonnet Data File
! From: emgraph Version : 16.56
! From Project: 190426_coupler_test
! Data is De-embedded 
! Data File Written: 05/06/2019 15:59:44
!< HDATE 04/25/2019 10:48:44
!< MDATE 04/25/2019 10:59:35
!< PARAMS
!< tandelta = 0.0
!< t_aSi = 0.25
!< W = 10.0
!< Lcoupler = 2700.0
!< END PARAMS
# GHZ S MA R 50.0 !  non standard terminations in data
! TERM 50.00000 0.000000 50.00000 0.000000 63.84000 0.000000
2.00000000 0.007710 71.095 0.999623 -21.73 0.026370 47.740
           0.999623 -21.73 0.007408 70.223 0.026457 72.900
           0.026370 47.740 0.026457 72.900 0.999302 -38.02
!< P1 F=2.0 Eeff=(6.61542829 0.0) Z0=(50.9674668 0.0) R=0.0 C=0.00719637 
!< P2 F=2.0 Eeff=(6.61542829 0.0) Z0=(50.9674668 0.0) R=0.0 C=0.00719637 
!< P3 F=2.0 Eeff=(7.77190732 0.0) Z0=(63.8378797 0.0) R=0.0 C=7.32021e-4 
3.00000000 0.011706 60.627 0.999173 -32.58 0.038945 26.585
           0.999173 -32.58 0.010769 60.367 0.039215 64.232
           0.038945 26.585 0.039215 64.232 0.998472 -57.11
!< P1 F=3.0 Eeff=(6.61540693 0.0) Z0=(50.967774 0.0) R=0.0 C=0.00719639 
!< P2 F=3.0 Eeff=(6.61540693 0.0) Z0=(50.967774 0.0) R=0.0 C=0.00719639 
!< P3 F=3.0 Eeff=(7.77190257 0.0) Z0=(63.8378507 0.0) R=0.0 C=7.3202e-4 
4.00000000 0.015719 49.204 0.998586 -43.43 0.050785 5.4040
           0.998586 -43.43 0.013734 50.553 0.051358 55.441
           0.050785 5.4040 0.051358 55.441 0.997388 -76.27
!< P1 F=4.0 Eeff=(6.61538316 0.0) Z0=(50.9682073 0.0) R=0.0 C=0.00719633 
!< P2 F=4.0 Eeff=(6.61538316 0.0) Z0=(50.9682073 0.0) R=0.0 C=0.00719633 
!< P3 F=4.0 Eeff=(7.77189411 0.0) Z0=(63.8378027 0.0) R=0.0 C=7.3202e-4 
5.00000000 0.019563 36.807 0.997906 -54.27 0.061648 -15.81
           0.997906 -54.27 0.016197 40.792 0.062616 46.512
           0.061648 -15.81 0.062616 46.512 0.996132 -95.53
!< P1 F=5.0 Eeff=(6.61534443 0.0) Z0=(50.9687599 0.0) R=0.0 C=0.0071963 
!< P2 F=5.0 Eeff=(6.61534443 0.0) Z0=(50.9687599 0.0) R=0.0 C=0.0071963 
!< P3 F=5.0 Eeff=(7.77188216 0.0) Z0=(63.8377365 0.0) R=0.0 C=7.3202e-4 
6.00000000 0.022984 23.504 0.997190 -65.10 0.071295 -37.04
           0.997190 -65.10 0.018075 31.100 0.072695 37.451
           0.071295 -37.04 0.072695 37.451 0.994803 -114.9
!< P1 F=6.0 Eeff=(6.61529487 0.0) Z0=(50.9694247 0.0) R=0.0 C=0.00719622 
!< P2 F=6.0 Eeff=(6.61529487 0.0) Z0=(50.9694247 0.0) R=0.0 C=0.00719622 
!< P3 F=6.0 Eeff=(7.77186751 0.0) Z0=(63.8376555 0.0) R=0.0 C=7.3202e-4 
7.00000000 0.025704 9.4046 0.996503 -75.91 0.079506 -58.30
           0.996503 -75.91 0.019304 21.492 0.081298 28.275
           0.079506 -58.30 0.081298 28.275 0.993514 -134.3
!< P1 F=7.0 Eeff=(6.61523586 0.0) Z0=(50.9702519 0.0) R=0.0 C=0.00719619 
!< P2 F=7.0 Eeff=(6.61523586 0.0) Z0=(50.9702519 0.0) R=0.0 C=0.00719619 
!< P3 F=7.0 Eeff=(7.77184986 0.0) Z0=(63.8375583 0.0) R=0.0 C=7.32019e-4 
8.00000000 0.027467 -5.379 0.995909 -86.71 0.086084 -79.57
           0.995909 -86.71 0.019847 11.985 0.088153 19.017
           0.086084 -79.57 0.088153 19.017 0.992380 -153.8
!< P1 F=8.0 Eeff=(6.61516796 0.0) Z0=(50.9712323 0.0) R=0.0 C=0.00719613 
!< P2 F=8.0 Eeff=(6.61516796 0.0) Z0=(50.9712323 0.0) R=0.0 C=0.00719613 
!< P3 F=8.0 Eeff=(7.77183078 0.0) Z0=(63.8374513 0.0) R=0.0 C=7.32019e-4 
