! Sonnet Data File
! From: emgraph Version : 16.56
! From Project: 190426_coupler_test
! Data is De-embedded 
! Data File Written: 05/06/2019 15:59:44
!< HDATE 04/25/2019 10:48:44
!< MDATE 04/25/2019 10:59:35
!< PARAMS
!< tandelta = 0.0
!< t_aSi = 0.25
!< W = 10.0
!< Lcoupler = 800.0
!< END PARAMS
# GHZ S MA R 50.0 !  non standard terminations in data
! TERM 50.00000 0.000000 50.00000 0.000000 63.84000 0.000000
2.00000000 0.005985 65.810 0.999950 -21.66 0.007961 61.625
           0.999950 -21.66 0.005964 71.439 0.007977 84.147
           0.007961 61.625 0.007977 84.147 0.999936 -12.89
!< P1 F=2.0 Eeff=(6.61542829 0.0) Z0=(50.9674668 0.0) R=0.0 C=0.00719637 
!< P2 F=2.0 Eeff=(6.61542829 0.0) Z0=(50.9674668 0.0) R=0.0 C=0.00719637 
!< P3 F=2.0 Eeff=(7.77190732 0.0) Z0=(63.8378797 0.0) R=0.0 C=7.32021e-4 
3.00000000 0.008715 53.616 0.999891 -32.49 0.011925 47.437
           0.999891 -32.49 0.008644 62.219 0.011976 81.168
           0.011925 47.437 0.011976 81.168 0.999857 -19.33
!< P1 F=3.0 Eeff=(6.61540693 0.0) Z0=(50.967774 0.0) R=0.0 C=0.00719639 
!< P2 F=3.0 Eeff=(6.61540693 0.0) Z0=(50.967774 0.0) R=0.0 C=0.00719639 
!< P3 F=3.0 Eeff=(7.77190257 0.0) Z0=(63.8378507 0.0) R=0.0 C=7.3202e-4 
4.00000000 0.011136 41.298 0.999812 -43.32 0.015869 33.249
           0.999812 -43.32 0.010977 53.079 0.015980 78.138
           0.015869 33.249 0.015980 78.138 0.999746 -25.78
!< P1 F=4.0 Eeff=(6.61538316 0.0) Z0=(50.9682073 0.0) R=0.0 C=0.00719633 
!< P2 F=4.0 Eeff=(6.61538316 0.0) Z0=(50.9682073 0.0) R=0.0 C=0.00719633 
!< P3 F=4.0 Eeff=(7.7718941 0.0) Z0=(63.8378027 0.0) R=0.0 C=7.3202e-4 
5.00000000 0.013161 28.800 0.999718 -54.15 0.019787 19.060
           0.999718 -54.15 0.012866 44.054 0.019981 75.049
           0.019787 19.060 0.019981 75.049 0.999605 -32.24
!< P1 F=5.0 Eeff=(6.61534443 0.0) Z0=(50.9687599 0.0) R=0.0 C=0.0071963 
!< P2 F=5.0 Eeff=(6.61534443 0.0) Z0=(50.9687599 0.0) R=0.0 C=0.0071963 
!< P3 F=5.0 Eeff=(7.77188215 0.0) Z0=(63.8377365 0.0) R=0.0 C=7.3202e-4 
6.00000000 0.014714 16.055 0.999611 -64.98 0.023672 4.8703
           0.999611 -64.98 0.014236 35.195 0.023963 71.906
           0.023672 4.8703 0.023963 71.906 0.999433 -38.69
!< P1 F=6.0 Eeff=(6.61529487 0.0) Z0=(50.9694247 0.0) R=0.0 C=0.00719622 
!< P2 F=6.0 Eeff=(6.61529487 0.0) Z0=(50.9694247 0.0) R=0.0 C=0.00719622 
!< P3 F=6.0 Eeff=(7.7718675 0.0) Z0=(63.8376554 0.0) R=0.0 C=7.3202e-4 
7.00000000 0.015736 2.9729 0.999497 -75.81 0.027518 -9.321
           0.999497 -75.81 0.015032 26.568 0.027909 68.719
           0.027518 -9.321 0.027909 68.719 0.999232 -45.15
!< P1 F=7.0 Eeff=(6.61523586 0.0) Z0=(50.9702519 0.0) R=0.0 C=0.00719619 
!< P2 F=7.0 Eeff=(6.61523586 0.0) Z0=(50.9702519 0.0) R=0.0 C=0.00719619 
!< P3 F=7.0 Eeff=(7.77184985 0.0) Z0=(63.8375582 0.0) R=0.0 C=7.32019e-4 
8.00000000 0.016184 -10.57 0.999378 -86.63 0.031319 -23.51
           0.999378 -86.63 0.015223 18.275 0.031797 65.504
           0.031319 -23.51 0.031797 65.504 0.999004 -51.62
!< P1 F=8.0 Eeff=(6.61516796 0.0) Z0=(50.9712323 0.0) R=0.0 C=0.00719613 
!< P2 F=8.0 Eeff=(6.61516796 0.0) Z0=(50.9712323 0.0) R=0.0 C=0.00719613 
!< P3 F=8.0 Eeff=(7.77183077 0.0) Z0=(63.8374513 0.0) R=0.0 C=7.32019e-4 
